! Created Fri Oct 24 18:23:55 2025
# hz S db R 50
! 5 Port Network Data from SP1.SP block
! freq  dbS11  angS11  dbS12  angS12  dbS13  angS13  dbS14  angS14  
!       dbS15  angS15  
!       dbS21  angS21  dbS22  angS22  dbS23  angS23  
!       dbS24  angS24  dbS25  angS25  
!       dbS31  angS31  dbS32  angS32  
!       dbS33  angS33  dbS34  angS34  dbS35  angS35  
!       dbS41  angS41  
!       dbS42  angS42  dbS43  angS43  dbS44  angS44  dbS45  angS45  
!       dbS51  angS51  dbS52  angS52  dbS53  angS53  dbS54  angS54  
!       dbS55  angS55  
!     
1.5e+09       -4.87603413         65.8425102        -6.98683575        -17.2408513        -6.98683575        -17.2408513         -8.6272217        -155.190029
                       -8.6272217        -155.190029
                      -6.98683575        -17.2408513         -7.4866771         98.0375807        -10.4761523        -163.458695        -6.77422142        -48.5106421
                      -4.92542921        -156.746508
                      -6.98683575        -17.2408513        -10.4761523        -163.458695         -7.4866771         98.0375807        -4.92542921        -156.746508
                      -6.77422142        -48.5106421
                       -8.6272217        -155.190029        -6.77422142        -48.5106421        -4.92542921        -156.746508        -14.8925917         176.491854
                      -5.25009729          -100.9741
                       -8.6272217        -155.190029        -4.92542921        -156.746508        -6.77422142        -48.5106421        -5.25009729          -100.9741
                      -14.8925917         176.491854

1.501e+09       -4.88540568         65.7028119        -6.97477244        -17.2895815        -6.97477244        -17.2895815        -8.63374798        -155.325659
                      -8.63374798        -155.325659
                      -6.97477244        -17.2895815        -7.49799144          97.947591        -10.4846664        -163.585186        -6.77364178        -48.5490729
                      -4.92468832        -156.874982
                      -6.97477244        -17.2895815        -10.4846664        -163.585186        -7.49799144          97.947591        -4.92468832        -156.874982
                      -6.77364178        -48.5490729
                      -8.63374798        -155.325659        -6.77364178        -48.5490729        -4.92468832        -156.874982        -14.8903871         176.694244
                      -5.24854699        -101.064172
                      -8.63374798        -155.325659        -4.92468832        -156.874982        -6.77364178        -48.5490729        -5.24854699        -101.064172
                      -14.8903871         176.694244

1.502e+09       -4.89480594         65.5630555        -6.96272716        -17.3385262        -6.96272716        -17.3385262        -8.64029673        -155.461296
                      -8.64029673        -155.461296
                      -6.96272716        -17.3385262        -7.50933523         97.8575826        -10.4931991        -163.711654        -6.77306259        -48.5874883
                      -4.92395649        -157.003461
                      -6.96272716        -17.3385262        -10.4931991        -163.711654        -7.50933523         97.8575826        -4.92395649        -157.003461
                      -6.77306259        -48.5874883
                      -8.64029673        -155.461296        -6.77306259        -48.5874883        -4.92395649        -157.003461        -14.8879698         176.896435
                       -5.2470048         -101.15427
                      -8.64029673        -155.461296        -4.92395649        -157.003461        -6.77306259        -48.5874883         -5.2470048         -101.15427
                      -14.8879698         176.896435

1.503e+09       -4.90423496         65.4232413        -6.95069997        -17.3876846        -6.95069997        -17.3876846        -8.64686795         -155.59694
                      -8.64686795         -155.59694
                      -6.95069997        -17.3876846        -7.52070852         97.7675558        -10.5017502        -163.838098        -6.77248382        -48.6258883
                      -4.92323372        -157.131945
                      -6.95069997        -17.3876846        -10.5017502        -163.838098        -7.52070852         97.7675558        -4.92323372        -157.131945
                      -6.77248382        -48.6258883
                      -8.64686795         -155.59694        -6.77248382        -48.6258883        -4.92323372        -157.131945        -14.8853404          177.09841
                      -5.24547072        -101.244392
                      -8.64686795         -155.59694        -4.92323372        -157.131945        -6.77248382        -48.6258883        -5.24547072        -101.244392
                      -14.8853404          177.09841

1.504e+09       -4.91369273         65.2833695        -6.93869098        -17.4370556        -6.93869098        -17.4370556        -8.65346168        -155.732591
                      -8.65346168        -155.732591
                      -6.93869098        -17.4370556        -7.53211136         97.6775108          -10.51032        -163.964518        -6.77190546        -48.6642729
                      -4.92252003        -157.260433
                      -6.93869098        -17.4370556          -10.51032        -163.964518        -7.53211136         97.6775108        -4.92252003        -157.260433
                      -6.77190546        -48.6642729
                      -8.65346168        -155.732591        -6.77190546        -48.6642729        -4.92252003        -157.260433        -14.8824992         177.300156
                      -5.24394478        -101.334539
                      -8.65346168        -155.732591        -4.92252003        -157.260433        -6.77190546        -48.6642729        -5.24394478        -101.334539
                      -14.8824992         177.300156

1.505e+09       -4.92317929         65.1434405        -6.92670026        -17.4866385        -6.92670026        -17.4866385        -8.66007793        -155.868248
                      -8.66007793        -155.868248
                      -6.92670026        -17.4866385        -7.54354378          97.587448        -10.5189082        -164.090915        -6.77132746        -48.7026422
                       -4.9218154        -157.388925
                      -6.92670026        -17.4866385        -10.5189082        -164.090915        -7.54354378          97.587448         -4.9218154        -157.388925
                      -6.77132746        -48.7026422
                      -8.66007793        -155.868248        -6.77132746        -48.7026422         -4.9218154        -157.388925        -14.8794469         177.501658
                      -5.24242699         -101.42471
                      -8.66007793        -155.868248         -4.9218154        -157.388925        -6.77132746        -48.7026422        -5.24242699         -101.42471
                      -14.8794469         177.501658

1.506e+09       -4.93269465         65.0034543        -6.91472789        -17.5364324        -6.91472789        -17.5364324        -8.66671673        -156.003912
                      -8.66671673        -156.003912
                      -6.91472789        -17.5364324        -7.55500584         97.4973675         -10.527515        -164.217287        -6.77074982         -48.740996
                      -4.92111985        -157.517422
                      -6.91472789        -17.5364324         -10.527515        -164.217287        -7.55500584         97.4973675        -4.92111985        -157.517422
                      -6.77074982         -48.740996
                      -8.66671673        -156.003912        -6.77074982         -48.740996        -4.92111985        -157.517422        -14.8761841         177.702899
                      -5.24091737        -101.514905
                      -8.66671673        -156.003912        -4.92111985        -157.517422        -6.77074982         -48.740996        -5.24091737        -101.514905
                      -14.8761841         177.702899

1.507e+09       -4.94223885         64.8634114        -6.90277395        -17.5864363        -6.90277395        -17.5864363         -8.6733781        -156.139582
                       -8.6733781        -156.139582
                      -6.90277395        -17.5864363        -7.56649758         97.4072696        -10.5361404        -164.343635        -6.77017249        -48.7793344
                      -4.92043338        -157.645922
                      -6.90277395        -17.5864363        -10.5361404        -164.343635        -7.56649758         97.4072696        -4.92043338        -157.645922
                      -6.77017249        -48.7793344
                       -8.6733781        -156.139582        -6.77017249        -48.7793344        -4.92043338        -157.645922        -14.8727114         177.903867
                      -5.23941593        -101.605125
                       -8.6733781        -156.139582        -4.92043338        -157.645922        -6.77017249        -48.7793344        -5.23941593        -101.605125
                      -14.8727114         177.903867

1.508e+09       -4.95181189          64.723312        -6.89083853        -17.6366494        -6.89083853        -17.6366494        -8.68006205        -156.275257
                      -8.68006205        -156.275257
                      -6.89083853        -17.6366494        -7.57801905         97.3171546        -10.5447843        -164.469958        -6.76959547        -48.8176575
                      -4.91975598        -157.774426
                      -6.89083853        -17.6366494        -10.5447843        -164.469958        -7.57801905         97.3171546        -4.91975598        -157.774426
                      -6.76959547        -48.8176575
                      -8.68006205        -156.275257        -6.76959547        -48.8176575        -4.91975598        -157.774426        -14.8690294         178.104545
                      -5.23792269        -101.695368
                      -8.68006205        -156.275257        -4.91975598        -157.774426        -6.76959547        -48.8176575        -5.23792269        -101.695368
                      -14.8690294         178.104545

1.509e+09       -4.96141379         64.5831562        -6.87892171        -17.6870707        -6.87892171        -17.6870707        -8.68676861        -156.410938
                      -8.68676861        -156.410938
                      -6.87892171        -17.6870707        -7.58957029         97.2270227        -10.5534468        -164.596257        -6.76901873        -48.8559652
                      -4.91908766        -157.902933
                      -6.87892171        -17.6870707        -10.5534468        -164.596257        -7.58957029         97.2270227        -4.91908766        -157.902933
                      -6.76901873        -48.8559652
                      -8.68676861        -156.410938        -6.76901873        -48.8559652        -4.91908766        -157.902933        -14.8651389         178.304919
                      -5.23643767        -101.785635
                      -8.68676861        -156.410938        -4.91908766        -157.902933        -6.76901873        -48.8559652        -5.23643767        -101.785635
                      -14.8651389         178.304919

1.51e+09       -4.97104458         64.4429444        -6.86702355        -17.7376994        -6.86702355        -17.7376994         -8.6934978        -156.546624
                       -8.6934978        -156.546624
                      -6.86702355        -17.7376994        -7.60115134         97.1368742        -10.5621279        -164.722531        -6.76844223        -48.8942575
                      -4.91842842        -158.031443
                      -6.86702355        -17.7376994        -10.5621279        -164.722531        -7.60115134         97.1368742        -4.91842842        -158.031443
                      -6.76844223        -48.8942575
                       -8.6934978        -156.546624        -6.76844223        -48.8942575        -4.91842842        -158.031443        -14.8610406         178.504975
                      -5.23496088        -101.875925
                       -8.6934978        -156.546624        -4.91842842        -158.031443        -6.76844223        -48.8942575        -5.23496088        -101.875925
                      -14.8610406         178.504975

1.511e+09       -4.98070428         64.3026767        -6.85514415        -17.7885345        -6.85514415        -17.7885345        -8.70024964        -156.682315
                      -8.70024964        -156.682315
                      -6.85514415        -17.7885345        -7.61276225         97.0467093        -10.5708275        -164.848779        -6.76786596        -48.9325344
                      -4.91777827        -158.159957
                      -6.85514415        -17.7885345        -10.5708275        -164.848779        -7.61276225         97.0467093        -4.91777827        -158.159957
                      -6.76786596        -48.9325344
                      -8.70024964        -156.682315        -6.76786596        -48.9325344        -4.91777827        -158.159957        -14.8567352         178.704699
                      -5.23349233        -101.966239
                      -8.70024964        -156.682315        -4.91777827        -158.159957        -6.76786596        -48.9325344        -5.23349233        -101.966239
                      -14.8567352         178.704699

1.512e+09       -4.99039291         64.1623535        -6.84328358        -17.8395753        -6.84328358        -17.8395753        -8.70702414         -156.81801
                      -8.70702414         -156.81801
                      -6.84328358        -17.8395753        -7.62440307         96.9565282        -10.5795456        -164.975002        -6.76728989         -48.970796
                       -4.9171372        -158.288473
                      -6.84328358        -17.8395753        -10.5795456        -164.975002        -7.62440307         96.9565282         -4.9171372        -158.288473
                      -6.76728989         -48.970796
                      -8.70702414         -156.81801        -6.76728989         -48.970796         -4.9171372        -158.288473        -14.8522235         178.904075
                      -5.23203205        -102.056575
                      -8.70702414         -156.81801         -4.9171372        -158.288473        -6.76728989         -48.970796        -5.23203205        -102.056575
                      -14.8522235         178.904075

1.513e+09       -5.00011048          64.021975        -6.83144191        -17.8908207        -6.83144191        -17.8908207        -8.71382134        -156.953709
                      -8.71382134        -156.953709
                      -6.83144191        -17.8908207        -7.63607384         96.8663314        -10.5882824          -165.1012          -6.766714        -49.0090423
                      -4.91650521        -158.416992
                      -6.83144191        -17.8908207        -10.5882824          -165.1012        -7.63607384         96.8663314        -4.91650521        -158.416992
                        -6.766714        -49.0090423
                      -8.71382134        -156.953709          -6.766714        -49.0090423        -4.91650521        -158.416992        -14.8475064         179.103091
                      -5.23058004        -102.146934
                      -8.71382134        -156.953709        -4.91650521        -158.416992          -6.766714        -49.0090423        -5.23058004        -102.146934
                      -14.8475064         179.103091

1.514e+09       -5.00985702         63.8815415        -6.81961922          -17.94227        -6.81961922          -17.94227        -8.72064124        -157.089412
                      -8.72064124        -157.089412
                      -6.81961922          -17.94227        -7.64777461         96.7761189        -10.5970377        -165.227372        -6.76613825        -49.0472732
                      -4.91588231        -158.545513
                      -6.81961922          -17.94227        -10.5970377        -165.227372        -7.64777461         96.7761189        -4.91588231        -158.545513
                      -6.76613825        -49.0472732
                      -8.72064124        -157.089412        -6.76613825        -49.0472732        -4.91588231        -158.545513        -14.8425848          179.30173
                      -5.22913633        -102.237316
                      -8.72064124        -157.089412        -4.91588231        -158.545513        -6.76613825        -49.0472732        -5.22913633        -102.237316
                      -14.8425848          179.30173

1.515e+09       -5.01963254         63.7410531        -6.80781559        -17.9939221        -6.80781559        -17.9939221        -8.72748387        -157.225119
                      -8.72748387        -157.225119
                      -6.80781559        -17.9939221        -7.65950541         96.6858911        -10.6058116        -165.353518        -6.76556264        -49.0854888
                       -4.9152685        -158.674036
                      -6.80781559        -17.9939221        -10.6058116        -165.353518        -7.65950541         96.6858911         -4.9152685        -158.674036
                      -6.76556264        -49.0854888
                      -8.72748387        -157.225119        -6.76556264        -49.0854888         -4.9152685        -158.674036        -14.8374594         179.499981
                      -5.22770093        -102.327721
                      -8.72748387        -157.225119         -4.9152685        -158.674036        -6.76556264        -49.0854888        -5.22770093        -102.327721
                      -14.8374594         179.499981

1.516e+09       -5.02943707         63.6005101        -6.79603108        -18.0457763        -6.79603108        -18.0457763        -8.73434925        -157.360829
                      -8.73434925        -157.360829
                      -6.79603108        -18.0457763         -7.6712663         96.5956482         -10.614604        -165.479638        -6.76498712        -49.1236891
                      -4.91466377        -158.802562
                      -6.79603108        -18.0457763         -10.614604        -165.479638         -7.6712663         96.5956482        -4.91466377        -158.802562
                      -6.76498712        -49.1236891
                      -8.73434925        -157.360829        -6.76498712        -49.1236891        -4.91466377        -158.802562        -14.8321313         179.697828
                      -5.22627385        -102.418147
                      -8.73434925        -157.360829        -4.91466377        -158.802562        -6.76498712        -49.1236891        -5.22627385        -102.418147
                      -14.8321313         179.697828

1.517e+09       -5.03927061         63.4599128        -6.78426577        -18.0978316        -6.78426577        -18.0978316        -8.74123739        -157.496541
                      -8.74123739        -157.496541
                      -6.78426577        -18.0978316        -7.68305733         96.5053904        -10.6234151        -165.605731        -6.76441168        -49.1618742
                      -4.91406814        -158.931089
                      -6.78426577        -18.0978316        -10.6234151        -165.605731        -7.68305733         96.5053904        -4.91406814        -158.931089
