! TOUCHSTONE file generated by CST MICROWAVE STUDIO
! Date and time: Sat Oct  4 18:39:48 2025
! Project name: Dise˝oBPF.cst
! Parameters = {L=20; Lc1=18.773; Lc2=21.2156; a=19.05; b=9.525; t=1.5; w1=11.9246; w2=8.70252; w3=8.01241}
! Header version: 2024
! Port assignment regex: !\s*Touchstone port\s*([0-9]+)\s*=\s*(CST MWS port|CST DES external port|CST DES block port)\s*(.+)\s* \(\"(.*)\"\)(\s*mode\s*([0-9]+))?.*
! Touchstone port assignment:
! Touchstone port 1 = CST MWS port 1 ("")
! Touchstone port 2 = CST MWS port 2 ("")
! S-Parameters are not renormalized. Unphysical impedance of 498.969 will be written to the file.
# GHz S MA R 498.969
8                              1      96.6335235    5.2053246e-06      6.64936779   5.20953159e-06       6.6421864      0.999996305      96.6513425
8.004                          1      95.3928888   5.34902157e-06      5.33117311   5.35109675e-06      5.26878781                1      95.4077952
8.008                          1      94.1644805   5.49395605e-06      4.03613733   5.49492799e-06      3.92200235                1      94.1767537
8.012                          1      92.9480991   5.64018497e-06      2.76268978    5.6410383e-06      2.60047904                1      92.9580004
8.016                          1      91.7435451   5.78776638e-06      1.50942208   5.78944294e-06      1.30295658                1      91.7513179
8.02                           1      90.5506187   5.93675921e-06      0.27506851   5.94015938e-06    0.0282566084                1      90.5564897
8.024                          1      89.3691203   6.08722315e-06    -0.941511055   6.09320711e-06     -1.22472249                1      89.3733004
8.028                          1      88.1988511   6.23921847e-06     -2.14134583   6.24860756e-06     -2.45701137                1      88.2015357
8.032                          1      87.0396127   6.39280589e-06     -3.32536694   6.40638398e-06     -3.66957499                1       87.040983
8.036                          1      85.8912081   6.54804657e-06     -4.49441858   6.56656133e-06     -4.86331753                1      85.8914316
8.04                           1      84.7534414   6.70500194e-06     -5.64926771   6.72916624e-06     -6.03908688                1      84.7526726
8.044                          1      83.6261184   6.86373374e-06     -6.79061264   6.89422688e-06     -7.19767883                1      83.6244994
8.048                          1      82.5090464    7.0243039e-06     -7.91909043   7.06177296e-06      -8.3398408                1      82.5067077
8.052                          1      81.4020345   7.18677457e-06     -9.03528352   7.23183561e-06     -9.46627544                1      81.3990957
8.056                          1       80.304894   7.35120808e-06     -10.1397255   7.40444737e-06     -10.5776438                1      80.3014641
8.06                           1      79.2174381    7.5176669e-06     -11.2329061   7.57964212e-06     -11.6745685                1      79.2136165
8.064                          1      78.1394825   7.68621369e-06      -12.315276   7.75745507e-06      -12.757636                1      78.1353592
8.068                          1       77.070845   7.85691128e-06     -13.3872504   7.93792271e-06     -13.8273996                1      77.0665015
8.072                          1      76.0113461   8.02982265e-06     -14.4492131   8.12108278e-06     -14.8843818                1      76.0068556
8.076                          1      74.9608086     8.205011e-06      -15.501519   8.30697423e-06     -15.9290758                1      74.9562367
8.08                           1       73.919058   8.38253969e-06     -16.5444977   8.49563725e-06     -16.9619483                1      73.9144631
8.084                          1      72.8859226   8.56247234e-06     -17.5784552    8.6871132e-06     -17.9834406                1      72.8813562
8.088                          1      71.8612331    8.7448728e-06     -18.6036766   8.88144461e-06      -18.993971                1      71.8567406
8.092                          1      70.8448231   8.92980518e-06     -19.6204281    9.0786752e-06     -19.9939356                1       70.840444
8.096                          1      69.8365291   9.11733389e-06     -20.6289587   9.27884983e-06     -20.9837103                1      69.8322972
8.1                            1      68.8361902   9.30752366e-06     -21.6295017   9.48201452e-06     -21.9636518                1      68.8321342
8.104                          1      67.8436483   9.50043958e-06     -22.6222761   9.68821643e-06      -22.934099                1      67.8397924
8.108                          1      66.8587483    9.6961471e-06     -23.6074883    9.8975039e-06     -23.8953742                1       66.855112
8.112                          1      65.8813378   9.89471211e-06     -24.5853327   1.01099264e-05     -24.8477838                1      65.8779365
8.116                          1      64.9112672   1.00962009e-05     -25.5559932   1.03255345e-05     -25.7916196                1      64.9081127
8.12                           1      63.9483899   1.03006804e-05     -26.5196439   1.05443801e-05     -26.7271598                1      63.9454902
8.124                          1      62.9925618   1.05082177e-05     -27.4764499    1.0766516e-05     -27.6546693                1      62.9899218
8.128                          1      62.0436419   1.07188809e-05     -28.4265683   1.09919965e-05      -28.574401                1      62.0412634
8.132                          1      61.1014918   1.09327384e-05     -29.3701486   1.12208768e-05     -29.4865964                1       61.099374
8.136                          1      60.1659758   1.11498593e-05     -30.3073334   1.14532134e-05     -30.3914862                1      60.1641154
8.14                  0.99987615      59.2369611   1.13703132e-05     -31.2382593    1.1689064e-05     -31.2892908      0.999886416      59.2353523
8.144                0.999752943      58.3143174   1.15941708e-05     -32.1630569   1.19284877e-05     -32.1802212      0.999774186      58.3129525
8.148                0.999631726      57.3979172   1.18215031e-05     -33.0818515   1.21715446e-05     -33.0644793      0.999663978      57.3967867
8.152                0.999512801      56.4876357   1.20523821e-05     -33.9947635    1.2418296e-05     -33.9422584      0.999556061      56.4867281
8.156                0.999396444      55.5833505   1.22868806e-05     -34.9019088   1.26688048e-05     -34.8137438       0.99945068       55.582653
8.16                 0.999282906      54.6849419   1.25250723e-05     -35.8033993   1.29231349e-05     -35.6791134      0.999348056      54.6844402
8.164                0.999172413      53.7922928   1.27670316e-05     -36.6993425   1.31813516e-05     -36.5385375      0.999248385      53.7919714
8.168                 0.99906517      52.9052883    1.3012834e-05     -37.5898428   1.34435216e-05     -37.3921798      0.999151846      52.9051307
8.172                0.998961359      52.0238162   1.32625561e-05     -38.4750011    1.3709713e-05     -38.2401977      0.999058595      52.0238051
8.176                0.998861143      51.1477668   1.35162751e-05      -39.354915   1.39799949e-05     -39.0827422       0.99896877      51.1478838
8.18                 0.998764666      50.2770325   1.37740697e-05     -40.2296794   1.42544383e-05     -39.9199586      0.998882493      50.2772587
8.184                0.998672054      49.4115082   1.40360194e-05     -41.0993864   1.45331154e-05     -40.7519868      0.998799868      49.4118241
8.188                0.998583417       48.551091    1.4302205e-05     -41.9641254   1.48160998e-05     -41.5789613      0.998720983      48.5514767
8.192                0.998498848      47.6956804   1.45727084e-05     -42.8239837   1.51034666e-05     -42.4010117      0.998645912      47.6961155
8.196                0.998418426       46.845178   1.48476128e-05     -43.6790461   1.53952925e-05      -43.218263      0.998574717      46.8456419
8.2                  0.998342215      45.9994876   1.51270027e-05     -44.5293953   1.56916557e-05     -44.0308354      0.998507443      45.9999595
8.204                0.998270267       45.158515   1.54109637e-05     -45.3751121    1.5992636e-05     -44.8388451      0.998444129      45.1589741
8.208                0.998202621      44.3221683    1.5699583e-05     -46.2162753   1.62983146e-05     -45.6424042      0.998384797      44.3225937
8.212                0.998139305      43.4903575   1.59929491e-05     -47.0529619   1.66087746e-05     -46.4416208      0.998329462      43.4907282
8.216                0.998080335      42.6629946   1.62911519e-05     -47.8852472   1.69241006e-05     -47.2365994      0.998278128        42.66329
8.22                  0.99802572      41.8399937   1.65942829e-05     -48.7132049    1.7244379e-05     -48.0274407      0.998230791      41.8401931
8.224                0.997975455      41.0212706   1.69024351e-05      -49.536907   1.75696977e-05     -48.8142425      0.998187438      41.0213538
8.228                 0.99792953      40.2067432    1.7215703e-05     -50.3564241   1.79001467e-05      -49.597099      0.998148047        40.20669
8.232                0.997887924      39.3963312   1.75341828e-05     -51.1718254   1.82358176e-05     -50.3761013       0.99811259      39.3961217
8.236                0.997850612      38.5899559   1.78579725e-05     -51.9831787   1.85768038e-05     -51.1513379      0.998081033      38.5895708
8.24                 0.997817557      37.7875406   1.81871717e-05     -52.7905505   1.89232008e-05     -51.9228941      0.998053333      37.7869609
8.244                 0.99778872      36.9890102   1.85218817e-05     -53.5940058   1.92751058e-05     -52.6908527      0.998029444      36.9882174
8.248                0.997764052      36.1942913   1.88622059e-05     -54.3936087    1.9632618e-05      -53.455294      0.998009314      36.1932673
8.252                0.997743501      35.4033123   1.92082493e-05     -55.1894218   1.99958387e-05     -54.2162955      0.997992885      35.4020395
8.256                0.997727009      34.6160029   1.95601189e-05     -55.9815069   2.03648712e-05     -54.9739326      0.997980095      34.6144643
8.26                 0.997714514      33.8322947   1.99179239e-05     -56.7699243   2.07398208e-05     -55.7282784      0.997970879      33.8304738
8.264                0.997705946      33.0521206   2.02817754e-05     -57.5547335   2.11207952e-05     -56.4794036      0.997965167      33.0500016
8.268                0.997701236      32.2754153   2.06517864e-05     -58.3359927   2.15079039e-05     -57.2273771      0.997962887      32.2729827
8.272                0.997700308      31.5021146   2.10280724e-05     -59.1137593   2.19012589e-05     -57.9722656      0.997963962      31.4993539
8.276                0.997703083       30.732156   2.14107509e-05     -59.8880895   2.23009745e-05     -58.7141338      0.997968314      30.7290531
8.28                  0.99770948      29.9654783   2.17999417e-05     -60.6590387   2.27071671e-05     -59.4530447      0.997975861      29.9620198
8.284                0.997719414      29.2020218    2.2195767e-05     -61.4266613   2.31199558e-05     -60.1890594      0.997986521      29.1981949
8.288                0.997732798      28.4417279   2.25983512e-05     -62.1910105   2.35394618e-05     -60.9222373      0.998000207      28.4375206
8.292                0.997749543      27.6845396   2.30078213e-05      -62.952139    2.3965809e-05     -61.6526362      0.998016833      27.6799405
8.296                0.997769558       26.930401   2.34243069e-05     -63.7100983   2.43991238e-05     -62.3803121      0.998036311      26.9253992
8.3                  0.997792751      26.1792575     2.384794e-05     -64.4649392   2.48395352e-05     -63.1053197      0.998058551      26.1738431
8.304                0.997819025      25.4310556   2.42788553e-05     -65.2167115   2.52871749e-05      -63.827712      0.998083462      25.4252192
8.308                0.997848286      24.6857432   2.47171901e-05     -65.9654642   2.57421772e-05     -64.5475407      0.998110952      24.6794762
8.312                0.997880438      23.9432693   2.51630846e-05     -66.7112456   2.62046793e-05     -65.2648561       0.99814093      23.9365636
8.316                0.997915381       23.203584   2.56166819e-05      -67.454103   2.66748212e-05     -65.9797071      0.998173303      23.1964322
8.32                 0.997953018      22.4666384   2.60781278e-05      -68.194083   2.71527457e-05     -66.6921414      0.998207978       22.459034
8.324                0.997993249      21.7323849   2.65475712e-05     -68.9312313   2.76385989e-05     -67.4022052      0.998244861      21.7243219
8.328                0.998035975      21.0007769   2.70251641e-05      -69.665593   2.81325296e-05     -68.1099439       0.99828386        20.99225
8.332                0.998081096      20.2717686   2.75110615e-05     -70.3972124   2.86346899e-05     -68.8154014      0.998324881      20.2627732
8.336                0.998128512      19.5453156   2.80054218e-05      -71.126133    2.9145235e-05     -69.5186206      0.998367831      19.5358476
8.34                 0.998178123      18.8213741   2.85084064e-05     -71.8523975   2.96643233e-05     -70.2196433      0.998412619      18.8114303
8.344                 0.99822983      18.0999016   2.90201804e-05      -72.576048   3.01921168e-05     -70.9185102      0.998459151      18.0894793
8.348                0.998283533      17.3808563    2.9540912e-05     -73.2971258   3.07287805e-05      -71.615261      0.998507336      17.3699534
8.352                0.998339133      16.6641973   3.00707732e-05     -74.0156716   3.12744833e-05     -72.3099344      0.998557084      16.6528124
8.356                0.998396531      15.9498848   3.06099395e-05     -74.7317254   3.18293974e-05     -73.0025683      0.998608304       15.938017
8.36                 0.998455629      15.2378796   3.11585901e-05     -75.4453264   3.23936987e-05     -73.6931993      0.998660907      15.2255287
8.364                 0.99851633      14.5281437    3.1716908e-05     -76.1565133   3.29675669e-05     -74.3818633      0.998714804        14.51531
8.368                0.998578537      13.8206395   3.22850801e-05     -76.8653239   3.35511855e-05     -75.0685956      0.998769909       13.807324
8.372                0.998642154      13.1153305   3.28632972e-05     -77.5717957   3.41447419e-05     -75.7534301      0.998826134      13.1015347
8.376                0.998707087       12.412181   3.34517544e-05     -78.2759653   3.47484275e-05     -76.4364003      0.998883394      12.3979068
8.38                 0.998773241      11.7111558   3.40506506e-05     -78.9778687   3.53624377e-05     -77.1175387      0.998941606      11.6964059
8.384                0.998840523      11.0122208   3.46601894e-05     -79.6775415   3.59869722e-05     -77.7968771      0.999000686      10.9969982
8.388                0.998908843      10.3153423   3.52805784e-05     -80.3750184   3.66222352e-05     -78.4744465      0.999060553      10.2996507
8.392                0.998978109      9.62048761   3.59120299e-05     -81.0703337   3.72684348e-05     -79.1502772      0.999121126      9.60433088
8.396                0.999048231      8.92762448   3.65547608e-05      -81.763521   3.79257839e-05     -79.8243986      0.999182327      8.91100723
8.4                  0.999119123      8.23672148   3.72089924e-05     -82.4546134   3.85945001e-05     -80.4968398      0.999244077       8.2196487
8.404                0.999190697       7.5477478   3.78749513e-05     -83.1436435   3.92748055e-05     -81.1676289      0.999306302      7.53022491
8.408                0.999262867      6.86067328   3.85528686e-05     -83.8306431    3.9966927e-05     -81.8367934      0.999368926      6.84270611
8.412                0.999335551      6.17546838   3.92429808e-05     -84.5156438   4.06710967e-05     -82.5043602      0.999431876      6.15706318
8.416                0.999408665      5.49210416   3.99455292e-05     -85.1986763   4.13875515e-05     -83.1703555       0.99949508      5.47326758
8.42                 0.999482128       4.8105523   4.06607607e-05     -85.8797711   4.21165335e-05     -83.8348051      0.999558469      4.79129134
8.424                0.999555861      4.13078504   4.13889275e-05     -86.5589579   4.28582902e-05     -84.4977339      0.999621973      4.11110707
8.428                0.999629787      3.45277519   4.21302875e-05     -87.2362661   4.36130745e-05     -85.1591665      0.999685527       3.4326879
8.432                0.999703827      2.77649612    4.2885104e-05     -87.9117245   4.43811447e-05     -85.8191267      0.999749064      2.75600753
8.436                0.999777909      2.10192171   4.36536464e-05     -88.5853613   4.51627651e-05     -86.4776379      0.999812522      2.08104014
8.44                 0.999851959      1.42902638     4.443619e-05     -89.2572044   4.59582056e-05      -87.134723      0.999875837      1.40776045
8.444                0.999925904     0.757785073   4.52330163e-05     -89.9272812    4.6767742e-05     -87.7904043       0.99993895     0.736143644
8.448                0.999999676    0.0881731988   4.60444128e-05     -90.5956186   4.75916563e-05     -88.4447034                1    0.0661653994
8.452                          1    -0.579833336   4.68706738e-05      -91.262243   4.84302369e-05     -89.0976419                1    -0.602198149
8.456                          1     -1.24625816   4.77120999e-05     -91.9271803   4.92837784e-05     -89.7492404                1     -1.26897041
8.46                           1     -1.91112444   4.85689985e-05     -92.5904561    5.0152582e-05     -90.3995192                1     -1.93417436
8.464                          1      -2.5744549   4.94416841e-05     -93.2520955   5.10369557e-05     -91.0484983                1     -2.59783254
8.468                          1     -3.23627184   5.03304781e-05     -93.9121232   5.19372143e-05     -91.6961971                1     -3.25996709
8.472                          1     -3.89659712   5.12357093e-05     -94.5705633   5.28536797e-05     -92.3426344                1     -3.92059971
8.476                          1      -4.5554522   5.21577136e-05     -95.2274399   5.37866811e-05     -92.9878288                1     -4.57975175
8.48                           1     -5.21285815   5.30968351e-05     -95.8827762   5.47365549e-05     -93.6317985                1     -5.23744416
8.484                          1     -5.86883565   5.40534251e-05     -96.5365954   5.57036453e-05     -94.2745611                1     -5.89369751
8.488                          1     -6.52340499   5.50278434e-05     -97.1889201   5.66883041e-05     -94.9161338                1     -6.54853203
8.492                          1     -7.17658609   5.60204578e-05     -97.8397726   5.76908912e-05     -95.5565335                1     -7.20196758
8.496                          1     -7.82839855   5.70316444e-05     -98.4891747   5.87117746e-05     -96.1957767                1     -7.85402369
8.5                            1     -8.47886157   5.80617882e-05     -99.1371481   5.97513305e-05     -96.8338794                1     -8.50471957
8.504                          1     -9.12799406   5.91112829e-05     -99.7837139    6.0809944e-05     -97.4708573                1     -9.15407409
8.508                          1     -9.77581458   6.01805311e-05     -100.428893   6.18880087e-05     -98.1067258                1     -9.80210581
8.512                          1     -10.4223414   6.12699451e-05     -101.072706   6.29859273e-05     -98.7414997                1      -10.448833
