!copiados por mi del data sheet para tener resolucion de 0.2 GHz
! MGF4921AM  (VDS=2V, lDS=10mA, Ta=room temperature)
! S-parameters f=2-6GHz
!
! Board:FR4, 0.8mmt.
! Jun. /2022
!
# GHz S MA R 50
!    f         S11             S21             S12             S22
! (GHz)   Magn.   Angle   Magn.   Angle   Magn.   Angle   Magn.    Angle
2.0 0.873 -57.9 5.887 129.1 0.072 54.7 0.383 -50.0
2.2 0.853 -64.2 5.870 124.4 0.079 51.9 0.378 -54.0
2.4 0.833 -69.7 5.750 119.9 0.084 48.8 0.368 -58.7
2.6 0.818 -73.6 5.442 116.1 0.089 45.1 0.363 -65.0
2.8 0.795 -79.7 5.401 111.5 0.093 43.0 0.336 -68.9
3.0 0.769 -86.7 5.366 106.7 0.098 40.3 0.328 -73.9
3.2 0.752 -91.6 5.201 102.8 0.103 37.5 0.320 -78.7
3.4 0.737 -96.5 5.029 99.0 0.106 34.4 0.310 -84.8
3.6 0.714 -102.4 4.959 94.8 0.109 32.4 0.291 -89.1
3.8 0.694 -107.8 4.856 90.7 0.113 30.2 0.282 -93.1
4.0 0.680 -113.1 4.733 86.8 0.117 27.7 0.274 -98.2
4.2 0.667 -118.0 4.587 83.3 0.119 25.1 0.265 -104.0
4.4 0.648 -123.5 4.503 79.3 0.122 23.2 0.252 -108.7
4.6 0.634 -128.9 4.399 75.6 0.124 21.2 0.244 -113.4
4.8 0.621 -134.2 4.287 72.1 0.127 19.0 0.237 -118.8
5.0 0.612 -138.9 4.172 68.7 0.129 16.9 0.229 -124.4
5.2 0.602 -143.9 4.068 65.1 0.131 15.0 0.220 -130.1
5.4 0.591 -149.4 3.986 61.6 0.133 13.0 0.215 -135.6
5.6 0.583 -154.2 3.880 58.3 0.135 11.1 0.209 -140.4
5.8 0.577 -159.2 3.785 54.9 0.136 9.1 0.206 -147.0
6.0 0.569 -164.4 3.697 51.6 0.138 7.3 0.204 -152.6
