!Agilent Technologies,N5230A,MY46400865,A.07.50.13
!Agilent N5230A: A.07.50.13
!Date: Monday, December 18, 2023 15:31:19
!Correction: S11(Full 1 Port(1)) 
!S1P File: Measurement: S11:
# Hz S  dB   R 50
3500000000  -2.430959e+000  1.184806e+002 
3505000000  -2.470201e+000  1.163017e+002 
3510000000  -2.472451e+000  1.140018e+002 
3515000000  -2.492045e+000  1.117209e+002 
3520000000  -2.507236e+000  1.093611e+002 
3525000000  -2.532166e+000  1.070475e+002 
3530000000  -2.567503e+000  1.047375e+002 
3535000000  -2.553264e+000  1.023670e+002 
3540000000  -2.610952e+000  9.998008e+001 
3545000000  -2.608757e+000  9.774249e+001 
3550000000  -2.631748e+000  9.533529e+001 
3555000000  -2.656369e+000  9.302357e+001 
3560000000  -2.670977e+000  9.069205e+001 
3565000000  -2.684633e+000  8.828930e+001 
3570000000  -2.716652e+000  8.578174e+001 
3575000000  -2.722089e+000  8.334659e+001 
3580000000  -2.756084e+000  8.084456e+001 
3585000000  -2.791968e+000  7.833050e+001 
3590000000  -2.839317e+000  7.590234e+001 
3595000000  -2.851149e+000  7.335065e+001 
3600000000  -2.894735e+000  7.090717e+001 
3605000000  -2.890669e+000  6.836425e+001 
3610000000  -2.921574e+000  6.581113e+001 
3615000000  -2.973267e+000  6.327592e+001 
3620000000  -3.007502e+000  6.068692e+001 
3625000000  -3.038517e+000  5.830922e+001 
3630000000  -3.064719e+000  5.556961e+001 
3635000000  -3.057462e+000  5.287197e+001 
3640000000  -3.107553e+000  5.024622e+001 
3645000000  -3.129000e+000  4.750069e+001 
3650000000  -3.122764e+000  4.472710e+001 
3655000000  -3.169231e+000  4.207019e+001 
3660000000  -3.217940e+000  3.917379e+001 
3665000000  -3.237270e+000  3.629565e+001 
3670000000  -3.252992e+000  3.340446e+001 
3675000000  -3.287139e+000  3.060315e+001 
3680000000  -3.336715e+000  2.775759e+001 
3685000000  -3.358920e+000  2.475459e+001 
3690000000  -3.426305e+000  2.176722e+001 
3695000000  -3.455852e+000  1.901092e+001 
3700000000  -3.493754e+000  1.589181e+001 
3705000000  -3.489548e+000  1.283021e+001 
3710000000  -3.511863e+000  9.775858e+000 
3715000000  -3.534582e+000  6.596137e+000 
3720000000  -3.581149e+000  3.503778e+000 
3725000000  -3.621547e+000  3.289976e-001 
3730000000  -3.653071e+000  -2.845675e+000 
3735000000  -3.703237e+000  -6.071731e+000 
3740000000  -3.738464e+000  -9.075777e+000 
3745000000  -3.770033e+000  -1.211959e+001 
3750000000  -3.778065e+000  -1.540899e+001 
3755000000  -3.808863e+000  -1.867481e+001 
3760000000  -3.837955e+000  -2.197687e+001 
3765000000  -3.873486e+000  -2.521458e+001 
3770000000  -3.906640e+000  -2.873325e+001 
3775000000  -3.916457e+000  -3.200194e+001 
3780000000  -3.935746e+000  -3.532456e+001 
3785000000  -3.962793e+000  -3.873939e+001 
3790000000  -3.982309e+000  -4.194783e+001 
3795000000  -3.989060e+000  -4.532814e+001 
3800000000  -3.979352e+000  -4.870548e+001 
3805000000  -4.006274e+000  -5.203913e+001 
3810000000  -3.986201e+000  -5.547165e+001 
3815000000  -3.992892e+000  -5.895384e+001 
3820000000  -3.993515e+000  -6.230161e+001 
3825000000  -4.017275e+000  -6.578304e+001 
3830000000  -4.011000e+000  -6.922695e+001 
3835000000  -3.996178e+000  -7.263130e+001 
3840000000  -3.965472e+000  -7.627617e+001 
3845000000  -3.942862e+000  -7.969847e+001 
3850000000  -3.965718e+000  -8.312427e+001 
3855000000  -3.958488e+000  -8.665316e+001 
3860000000  -3.951462e+000  -9.016206e+001 
3865000000  -3.941147e+000  -9.358040e+001 
3870000000  -3.944809e+000  -9.704042e+001 
3875000000  -3.912137e+000  -1.004356e+002 
3880000000  -3.898456e+000  -1.038170e+002 
3885000000  -3.883984e+000  -1.073027e+002 
3890000000  -3.872169e+000  -1.106598e+002 
3895000000  -3.849999e+000  -1.140223e+002 
3900000000  -3.843488e+000  -1.173278e+002 
3905000000  -3.804590e+000  -1.206649e+002 
3910000000  -3.803801e+000  -1.239247e+002 
3915000000  -3.760514e+000  -1.272308e+002 
3920000000  -3.752238e+000  -1.305342e+002 
3925000000  -3.753771e+000  -1.335988e+002 
3930000000  -3.717993e+000  -1.368507e+002 
3935000000  -3.730232e+000  -1.399491e+002 
3940000000  -3.692427e+000  -1.432239e+002 
3945000000  -3.669082e+000  -1.461963e+002 
3950000000  -3.609023e+000  -1.493507e+002 
3955000000  -3.595291e+000  -1.523766e+002 
3960000000  -3.567679e+000  -1.555432e+002 
3965000000  -3.559725e+000  -1.584143e+002 
3970000000  -3.527021e+000  -1.614782e+002 
3975000000  -3.506993e+000  -1.644503e+002 
3980000000  -3.490965e+000  -1.673573e+002 
3985000000  -3.463234e+000  -1.703066e+002 
3990000000  -3.456973e+000  -1.732583e+002 
3995000000  -3.435225e+000  -1.759837e+002 
4000000000  -3.417864e+000  -1.788575e+002 
4005000000  -3.422815e+000  1.783480e+002 
4010000000  -3.386378e+000  1.755907e+002 
4015000000  -3.345895e+000  1.728421e+002 
4020000000  -3.340383e+000  1.701137e+002 
4025000000  -3.297225e+000  1.673704e+002 
4030000000  -3.297262e+000  1.646543e+002 
4035000000  -3.275141e+000  1.621006e+002 
4040000000  -3.266289e+000  1.595662e+002 
4045000000  -3.253205e+000  1.567214e+002 
4050000000  -3.265972e+000  1.542499e+002 
4055000000  -3.220740e+000  1.516490e+002 
4060000000  -3.219132e+000  1.490536e+002 
4065000000  -3.209181e+000  1.464292e+002 
4070000000  -3.185949e+000  1.439885e+002 
4075000000  -3.177306e+000  1.413369e+002 
4080000000  -3.159009e+000  1.387295e+002 
4085000000  -3.175388e+000  1.362464e+002 
4090000000  -3.130378e+000  1.337773e+002 
4095000000  -3.147911e+000  1.314304e+002 
4100000000  -3.114989e+000  1.289973e+002 
4105000000  -3.128676e+000  1.265568e+002 
4110000000  -3.136642e+000  1.240976e+002 
4115000000  -3.118345e+000  1.216903e+002 
4120000000  -3.131454e+000  1.193671e+002 
4125000000  -3.148217e+000  1.170874e+002 
4130000000  -3.131142e+000  1.146336e+002 
4135000000  -3.087037e+000  1.122287e+002 
4140000000  -3.129827e+000  1.098885e+002 
4145000000  -3.098175e+000  1.075988e+002 
4150000000  -3.105533e+000  1.051293e+002 
4155000000  -3.123313e+000  1.027838e+002 
4160000000  -3.156480e+000  1.005281e+002 
4165000000  -3.156731e+000  9.801202e+001 
4170000000  -3.165342e+000  9.606685e+001 
4175000000  -3.143097e+000  9.372298e+001 
4180000000  -3.152970e+000  9.143087e+001 
4185000000  -3.151697e+000  8.901075e+001 
4190000000  -3.140371e+000  8.674215e+001 
4195000000  -3.181984e+000  8.436989e+001 
4200000000  -3.193495e+000  8.209724e+001 
4205000000  -3.221487e+000  7.989939e+001 
4210000000  -3.223252e+000  7.761424e+001 
4215000000  -3.219138e+000  7.536607e+001 
4220000000  -3.261468e+000  7.297788e+001 
4225000000  -3.271621e+000  7.067140e+001 
4230000000  -3.307046e+000  6.839214e+001 
4235000000  -3.311072e+000  6.616271e+001 
4240000000  -3.312165e+000  6.377537e+001 
4245000000  -3.366656e+000  6.153051e+001 
4250000000  -3.364803e+000  5.911176e+001 
4255000000  -3.444009e+000  5.691937e+001 
4260000000  -3.468832e+000  5.454402e+001 
4265000000  -3.462327e+000  5.241386e+001 
4270000000  -3.476641e+000  5.007933e+001 
4275000000  -3.543857e+000  4.764709e+001 
4280000000  -3.542346e+000  4.531712e+001 
4285000000  -3.590061e+000  4.304186e+001 
4290000000  -3.617836e+000  4.063095e+001 
4295000000  -3.625086e+000  3.826387e+001 
4300000000  -3.698616e+000  3.584214e+001 
4305000000  -3.746551e+000  3.354635e+001 
4310000000  -3.780828e+000  3.113849e+001 
4315000000  -3.804717e+000  2.881714e+001 
4320000000  -3.831425e+000  2.644499e+001 
4325000000  -3.901098e+000  2.395532e+001 
4330000000  -3.916107e+000  2.165486e+001 
4335000000  -3.968995e+000  1.905053e+001 
4340000000  -4.004950e+000  1.664801e+001 
4345000000  -4.077937e+000  1.410675e+001 
4350000000  -4.150710e+000  1.157922e+001 
4355000000  -4.186175e+000  9.135209e+000 
4360000000  -4.244139e+000  6.375940e+000 
4365000000  -4.281609e+000  3.866491e+000 
4370000000  -4.355708e+000  1.318506e+000 
4375000000  -4.416158e+000  -1.398429e+000 
4380000000  -4.471680e+000  -4.000947e+000 
4385000000  -4.551930e+000  -6.824587e+000 
4390000000  -4.616628e+000  -9.473995e+000 
4395000000  -4.712887e+000  -1.221902e+001 
4400000000  -4.787700e+000  -1.492980e+001 
4405000000  -4.903348e+000  -1.742736e+001 
4410000000  -4.959699e+000  -2.018386e+001 
4415000000  -5.028553e+000  -2.299103e+001 
4420000000  -5.102233e+000  -2.595414e+001 
4425000000  -5.223185e+000  -2.890268e+001 
4430000000  -5.304515e+000  -3.179524e+001 
4435000000  -5.425201e+000  -3.466584e+001 
4440000000  -5.509208e+000  -3.759674e+001 
4445000000  -5.598660e+000  -4.054452e+001 
4450000000  -5.701603e+000  -4.361176e+001 
4455000000  -5.813852e+000  -4.670546e+001 
4460000000  -5.902715e+000  -4.980882e+001 
4465000000  -6.036711e+000  -5.283783e+001 
4470000000  -6.163548e+000  -5.594555e+001 
4475000000  -6.280637e+000  -5.917844e+001 
4480000000  -6.419244e+000  -6.233772e+001 
4485000000  -6.560594e+000  -6.578649e+001 
4490000000  -6.671493e+000  -6.903896e+001 
4495000000  -6.824777e+000  -7.239982e+001 
4500000000  -6.937950e+000  -7.555984e+001 
4505000000  -7.061775e+000  -7.911682e+001 
4510000000  -7.168141e+000  -8.272391e+001 
4515000000  -7.317001e+000  -8.643234e+001 
4520000000  -7.458726e+000  -9.014811e+001 
4525000000  -7.629731e+000  -9.387494e+001 
4530000000  -7.782225e+000  -9.762708e+001 
4535000000  -7.914763e+000  -1.015377e+002 
4540000000  -8.054235e+000  -1.057156e+002 
4545000000  -8.238101e+000  -1.098257e+002 
4550000000  -8.416615e+000  -1.141526e+002 
4555000000  -8.630602e+000  -1.183842e+002 
4560000000  -8.816284e+000  -1.227579e+002 
4565000000  -9.060583e+000  -1.272042e+002 
4570000000  -9.267922e+000  -1.314730e+002 
4575000000  -9.510813e+000  -1.359933e+002 
4580000000  -9.784965e+000  -1.403360e+002 
4585000000  -9.973671e+000  -1.445264e+002 
4590000000  -1.019907e+001  -1.490498e+002 
4595000000  -1.039951e+001  -1.535268e+002 
4600000000  -1.061594e+001  -1.581378e+002 
4605000000  -1.081245e+001  -1.629905e+002 
4610000000  -1.102438e+001  -1.676859e+002 
4615000000  -1.125008e+001  -1.727453e+002 
4620000000  -1.148021e+001  -1.777363e+002 
4625000000  -1.172027e+001  1.774353e+002 
4630000000  -1.188423e+001  1.726981e+002 
4635000000  -1.207688e+001  1.677115e+002 
4640000000  -1.228195e+001  1.624508e+002 
4645000000  -1.243241e+001  1.573790e+002 
4650000000  -1.258143e+001  1.517877e+002 
4655000000  -1.274339e+001  1.466912e+002 
4660000000  -1.288613e+001  1.414060e+002 
4665000000  -1.297221e+001  1.355911e+002 
4670000000  -1.310937e+001  1.296912e+002 
4675000000  -1.332542e+001  1.237089e+002 
4680000000  -1.350315e+001  1.178852e+002 
4685000000  -1.365506e+001  1.124013e+002 
4690000000  -1.381073e+001  1.069790e+002 
4695000000  -1.395016e+001  1.014848e+002 
4700000000  -1.408244e+001  9.589358e+001 
4705000000  -1.411946e+001  9.023476e+001 
4710000000  -1.418292e+001  8.438534e+001 
4715000000  -1.432764e+001  7.841263e+001 
4720000000  -1.443888e+001  7.252494e+001 
4725000000  -1.452817e+001  6.670959e+001 
4730000000  -1.464695e+001  6.063478e+001 
4735000000  -1.482269e+001  5.483927e+001 
4740000000  -1.496640e+001  4.901830e+001 
4745000000  -1.510285e+001  4.316800e+001 
4750000000  -1.522813e+001  3.752796e+001 
4755000000  -1.542036e+001  3.213251e+001 
4760000000  -1.551715e+001  2.712133e+001 
4765000000  -1.560807e+001  2.158466e+001 
4770000000  -1.565960e+001  1.583900e+001 
4775000000  -1.578427e+001  1.001416e+001 
4780000000  -1.594577e+001  4.516499e+000 
4785000000  -1.607682e+001  -1.223667e+000 
4790000000  -1.620030e+001  -6.647837e+000 
4795000000  -1.633070e+001  -1.230221e+001 
4800000000  -1.638879e+001  -1.776028e+001 
4805000000  -1.650606e+001  -2.341160e+001 
4810000000  -1.661944e+001  -2.916642e+001 
4815000000  -1.663666e+001  -3.495386e+001 
4820000000  -1.676445e+001  -4.045649e+001 
4825000000  -1.680119e+001  -4.646365e+001 
4830000000  -1.684334e+001  -5.243467e+001 
4835000000  -1.695515e+001  -5.893975e+001 
4840000000  -1.701003e+001  -6.475500e+001 
4845000000  -1.702057e+001  -7.124738e+001 
4850000000  -1.702902e+001  -7.752447e+001 
4855000000  -1.704184e+001  -8.412250e+001 
4860000000  -1.707789e+001  -9.033610e+001 
4865000000  -1.705813e+001  -9.691174e+001 
4870000000  -1.701454e+001  -1.032678e+002 
4875000000  -1.694049e+001  -1.102102e+002 
4880000000  -1.683812e+001  -1.167268e+002 
4885000000  -1.673554e+001  -1.235928e+002 
4890000000  -1.666165e+001  -1.302986e+002 
4895000000  -1.654042e+001  -1.373072e+002 
4900000000  -1.643975e+001  -1.442740e+002 
4905000000  -1.632909e+001  -1.509649e+002 
4910000000  -1.620512e+001  -1.573996e+002 
4915000000  -1.604107e+001  -1.634420e+002 
4920000000  -1.579391e+001  -1.699594e+002 
4925000000  -1.559208e+001  -1.764958e+002 
4930000000  -1.541985e+001  1.768187e+002 
4935000000  -1.523260e+001  1.705261e+002 
4940000000  -1.501499e+001  1.645462e+002 
4945000000  -1.485835e+001  1.583774e+002 
4950000000  -1.460561e+001  1.524351e+002 
4955000000  -1.443189e+001  1.465794e+002 
4960000000  -1.425667e+001  1.407954e+002 
4965000000  -1.403925e+001  1.350813e+002 
4970000000  -1.386431e+001  1.298283e+002 
4975000000  -1.369204e+001  1.243849e+002 
4980000000  -1.350794e+001  1.194472e+002 
4985000000  -1.329864e+001  1.145896e+002 
4990000000  -1.310954e+001  1.098597e+002 
4995000000  -1.288871e+001  1.054116e+002 
5000000000  -1.255216e+001  1.006363e+002 
5005000000  -1.228252e+001  9.556295e+001 
5010000000  -1.204340e+001  9.028693e+001 
5015000000  -1.185961e+001  8.488747e+001 
5020000000  -1.170322e+001  8.022945e+001 
5025000000  -1.154444e+001  7.559451e+001 
5030000000  -1.139038e+001  7.087349e+001 
5035000000  -1.121566e+001  6.649548e+001 
5040000000  -1.100432e+001  6.212088e+001 
5045000000  -1.083294e+001  5.776423e+001 
5050000000  -1.064421e+001  5.332463e+001 
5055000000  -1.047776e+001  4.879632e+001 
5060000000  -1.028465e+001  4.428668e+001 
5065000000  -1.008972e+001  3.993156e+001 
5070000000  -9.954341e+000  3.548097e+001 
5075000000  -9.812207e+000  3.092458e+001 
5080000000  -9.704888e+000  2.642686e+001 
5085000000  -9.593904e+000  2.209646e+001 
5090000000  -9.490710e+000  1.790748e+001 
5095000000  -9.403185e+000  1.403999e+001 
5100000000  -9.261562e+000  9.941809e+000 
5105000000  -9.163551e+000  6.025074e+000 
5110000000  -9.011232e+000  1.916081e+000 
5115000000  -8.914124e+000  -1.954441e+000 
5120000000  -8.782472e+000  -6.131107e+000 
5125000000  -8.703941e+000  -1.009785e+001 
5130000000  -8.615309e+000  -1.422255e+001 
5135000000  -8.529305e+000  -1.821618e+001 
5140000000  -8.470654e+000  -2.215332e+001 
5145000000  -8.405702e+000  -2.578357e+001 
5150000000  -8.367907e+000  -2.929715e+001 
5155000000  -8.264553e+000  -3.268055e+001 
5160000000  -8.159913e+000  -3.616105e+001 
5165000000  -8.063918e+000  -3.991108e+001 
5170000000  -7.943823e+000  -4.355653e+001 
5175000000  -7.849844e+000  -4.734509e+001 
5180000000  -7.775909e+000  -5.116742e+001 
5185000000  -7.745394e+000  -5.500139e+001 
5190000000  -7.689628e+000  -5.837173e+001 
5195000000  -7.634665e+000  -6.163048e+001 
5200000000  -7.572873e+000  -6.496013e+001 
5205000000  -7.510634e+000  -6.816068e+001 
5210000000  -7.377542e+000  -7.157602e+001 
5215000000  -7.288948e+000  -7.496153e+001 
5220000000  -7.251744e+000  -7.838340e+001 
5225000000  -7.163723e+000  -8.186589e+001 
5230000000  -7.069920e+000  -8.520490e+001 
5235000000  -7.068032e+000  -8.859364e+001 
5240000000  -6.988940e+000  -9.202369e+001 
5245000000  -6.923589e+000  -9.520690e+001 
5250000000  -6.873268e+000  -9.885095e+001 
5255000000  -6.808400e+000  -1.015559e+002 
5260000000  -6.764092e+000  -1.045102e+002 
5265000000  -6.677158e+000  -1.077341e+002 
5270000000  -6.629749e+000  -1.108636e+002 
5275000000  -6.554419e+000  -1.141331e+002 
5280000000  -6.508887e+000  -1.172877e+002 
5285000000  -6.460539e+000  -1.204378e+002 
5290000000  -6.414742e+000  -1.235224e+002 
5295000000  -6.353300e+000  -1.264751e+002 
5300000000  -6.315338e+000  -1.294540e+002 
5305000000  -6.249806e+000  -1.325715e+002 
5310000000  -6.192861e+000  -1.355216e+002 
5315000000  -6.164291e+000  -1.385760e+002 
5320000000  -6.139508e+000  -1.414191e+002 
5325000000  -6.096304e+000  -1.444264e+002 
5330000000  -6.045092e+000  -1.472297e+002 
5335000000  -6.026063e+000  -1.501178e+002 
5340000000  -5.965734e+000  -1.530729e+002 
5345000000  -5.894794e+000  -1.559175e+002 
5350000000  -5.885256e+000  -1.587058e+002 
5355000000  -5.810461e+000  -1.617506e+002 
5360000000  -5.791391e+000  -1.645355e+002 
5365000000  -5.758350e+000  -1.674071e+002 
5370000000  -5.719486e+000  -1.702799e+002 
5375000000  -5.714721e+000  -1.731158e+002 
5380000000  -5.640782e+000  -1.759901e+002 
5385000000  -5.637979e+000  -1.787710e+002 
5390000000  -5.633333e+000  1.785891e+002 
5395000000  -5.590169e+000  1.757881e+002 
5400000000  -5.564377e+000  1.731311e+002 
5405000000  -5.536235e+000  1.703400e+002 
5410000000  -5.510381e+000  1.676196e+002 
5415000000  -5.483384e+000  1.648643e+002 
5420000000  -5.446991e+000  1.620552e+002 
5425000000  -5.457454e+000  1.593716e+002 
5430000000  -5.463304e+000  1.568017e+002 
5435000000  -5.418415e+000  1.539824e+002 
5440000000  -5.389356e+000  1.513757e+002 
5445000000  -5.396036e+000  1.485872e+002 
5450000000  -5.373685e+000  1.459747e+002 
5455000000  -5.356406e+000  1.432974e+002 
5460000000  -5.330024e+000  1.405107e+002 
5465000000  -5.337301e+000  1.377825e+002 
5470000000  -5.343138e+000  1.351978e+002 
5475000000  -5.338337e+000  1.326496e+002 
5480000000  -5.321795e+000  1.298574e+002 
5485000000  -5.305741e+000  1.271755e+002 
5490000000  -5.296214e+000  1.243854e+002 
5495000000  -5.256876e+000  1.215510e+002 
5500000000  -5.299696e+000  1.187452e+002 
5505000000  -5.311227e+000  1.158791e+002 
5510000000  -5.322389e+000  1.130633e+002 
5515000000  -5.339896e+000  1.104949e+002 
5520000000  -5.370841e+000  1.078176e+002 
5525000000  -5.388450e+000  1.051734e+002 
5530000000  -5.414289e+000  1.024576e+002 
5535000000  -5.431735e+000  9.971805e+001 
5540000000  -5.423547e+000  9.684738e+001 
5545000000  -5.425154e+000  9.398217e+001 
5550000000  -5.453054e+000  9.109258e+001 
5555000000  -5.470228e+000  8.825378e+001 
5560000000  -5.498312e+000  8.526233e+001 
5565000000  -5.555545e+000  8.248611e+001 
5570000000  -5.600730e+000  7.968905e+001 
5575000000  -5.639724e+000  7.676340e+001 
5580000000  -5.670431e+000  7.397285e+001 
5585000000  -5.739440e+000  7.101635e+001 
5590000000  -5.765378e+000  6.819788e+001 
5595000000  -5.841019e+000  6.538129e+001 
5600000000  -5.857764e+000  6.239968e+001 
5605000000  -5.930130e+000  5.943687e+001 
5610000000  -5.962681e+000  5.642208e+001 
5615000000  -6.010281e+000  5.338431e+001 
5620000000  -6.065688e+000  5.015303e+001 
5625000000  -6.102888e+000  4.721941e+001 
5630000000  -6.195659e+000  4.398491e+001 
5635000000  -6.264853e+000  4.081855e+001 
5640000000  -6.338352e+000  3.758873e+001 
5645000000  -6.428873e+000  3.456461e+001 
5650000000  -6.477741e+000  3.144779e+001 
5655000000  -6.554750e+000  2.835804e+001 
5660000000  -6.599975e+000  2.512006e+001 
5665000000  -6.676471e+000  2.176715e+001 
5670000000  -6.718966e+000  1.850648e+001 
5675000000  -6.832815e+000  1.508158e+001 
5680000000  -6.878862e+000  1.174330e+001 
5685000000  -6.956599e+000  8.229778e+000 
5690000000  -7.063177e+000  4.887849e+000 
5695000000  -7.134881e+000  1.322644e+000 
5700000000  -7.221625e+000  -2.219209e+000 
5705000000  -7.280485e+000  -5.601223e+000 
5710000000  -7.364025e+000  -9.356947e+000 
5715000000  -7.434855e+000  -1.274753e+001 
5720000000  -7.487367e+000  -1.653165e+001 
