!Keysight Technologies,P5008B,MY61100294,A.19.80.06
!Date: Tuesday, November 25, 2025 11:16:41
!Correction: S11(C  1-Port  ) 
!S1P File: Measurement: S11:
# Hz S  dB   R 50
4000000000 -12.763503 -40.206322
4004000000 -12.758102 -45.501125
4008000000 -12.796269 -50.107025
4012000000 -12.905145 -52.412319
4016000000 -13.011154 -56.758457
4020000000 -12.970955 -60.943592
4024000000 -13.108481 -64.544121
4028000000 -13.17818 -68.164711
4032000000 -13.143243 -72.433311
4036000000 -13.23455 -75.769028
4040000000 -13.242563 -79.742607
4044000000 -13.331005 -83.124786
4048000000 -13.330206 -86.426826
4052000000 -13.494723 -90.345413
4056000000 -13.53134 -92.980469
4060000000 -13.573367 -97.485802
4064000000 -13.461654 -101.14936
4068000000 -13.456488 -103.86263
4072000000 -13.630419 -107.36227
4076000000 -13.637218 -110.94944
4080000000 -13.675156 -114.90554
4084000000 -13.677022 -118.77518
4088000000 -13.59434 -122.32772
4092000000 -13.820885 -125.05071
4096000000 -13.850519 -128.81647
4100000000 -13.807187 -131.49544
4104000000 -13.820478 -135.01495
4108000000 -13.97354 -138.07881
4112000000 -14.057785 -141.16135
4116000000 -14.106444 -144.68306
4120000000 -14.177099 -147.94174
4124000000 -14.275975 -150.50641
4128000000 -14.361443 -153.0405
4132000000 -14.537601 -155.85495
4136000000 -14.546245 -160.48607
4140000000 -14.654548 -162.38145
4144000000 -14.607602 -165.05919
4148000000 -14.841811 -168.5795
4152000000 -14.96445 -170.24271
4156000000 -15.169996 -173.34947
4160000000 -15.111342 -175.5462
4164000000 -15.219934 -178.34439
4168000000 -15.239447 179.75284
4172000000 -15.405748 177.92062
4176000000 -15.528309 176.10669
4180000000 -15.677817 173.22906
4184000000 -15.792994 170.97754
4188000000 -15.763993 168.75545
4192000000 -15.877409 167.6655
4196000000 -15.894033 163.87556
4200000000 -16.031956 161.21735
4204000000 -16.249084 160.16368
4208000000 -16.204006 157.29529
4212000000 -16.424055 156.07307
4216000000 -16.403461 155.11871
4220000000 -16.607082 152.7878
4224000000 -16.563768 150.79158
4228000000 -16.484058 148.63321
4232000000 -16.882538 148.28783
4236000000 -16.780319 146.04761
4240000000 -16.820114 142.94557
4244000000 -17.049648 141.78552
4248000000 -16.962048 139.85468
4252000000 -16.982231 139.00386
4256000000 -17.048874 136.32671
4260000000 -17.014671 135.27431
4264000000 -17.080608 134.57246
4268000000 -17.118732 132.2018
4272000000 -17.175869 129.65862
4276000000 -17.023293 128.01146
4280000000 -17.145575 126.72066
4284000000 -17.383099 123.94417
4288000000 -17.154039 123.39576
4292000000 -17.222116 120.64498
4296000000 -17.479395 118.5406
4300000000 -17.08526 116.74171
4304000000 -17.372362 115.33777
4308000000 -17.212111 112.45229
4312000000 -17.255236 111.72573
4316000000 -17.36891 108.32687
4320000000 -17.394402 105.58138
4324000000 -17.374281 103.33543
4328000000 -17.547516 101.3588
4332000000 -17.589397 98.910278
4336000000 -17.831003 96.504868
4340000000 -17.813208 95.024376
4344000000 -17.93973 91.227829
4348000000 -18.047108 89.197235
4352000000 -18.143871 87.240189
4356000000 -18.239719 84.570442
4360000000 -18.447796 82.666672
4364000000 -18.401489 79.902176
4368000000 -18.527422 77.929985
4372000000 -18.513489 76.28109
4376000000 -18.849888 73.47908
4380000000 -18.928452 71.286156
4384000000 -19.193283 67.327209
4388000000 -19.055355 65.858505
4392000000 -19.248983 62.245926
4396000000 -19.609091 59.214722
4400000000 -19.51222 56.602806
4404000000 -20.005527 54.765419
4408000000 -20.335754 52.121872
4412000000 -20.508097 49.460079
4416000000 -20.577694 47.269958
4420000000 -20.856108 45.582584
4424000000 -21.291267 41.063095
4428000000 -21.19199 37.991917
4432000000 -21.844759 35.897758
4436000000 -21.892063 33.077034
4440000000 -21.85668 27.513201
4444000000 -22.572952 23.387739
4448000000 -22.637312 22.555176
4452000000 -23.001955 20.825787
4456000000 -23.097633 15.200656
4460000000 -23.642878 12.553719
4464000000 -24.069616 8.011219
4468000000 -24.365843 7.6361651
4472000000 -24.629318 -0.26724011
4476000000 -25.134096 -3.369319
4480000000 -25.43107 -7.249639
4484000000 -25.362432 -9.4133673
4488000000 -25.818787 -13.55202
4492000000 -25.980343 -21.732199
4496000000 -26.6947 -26.023361
4500000000 -26.586021 -33.472805
4504000000 -27.747387 -36.311481
4508000000 -27.769442 -43.433056
4512000000 -27.873356 -52.542965
4516000000 -27.934912 -59.075729
4520000000 -28.133404 -65.572845
4524000000 -27.906076 -72.881668
4528000000 -28.300577 -80.299469
4532000000 -27.906826 -81.855743
4536000000 -27.67952 -91.761475
4540000000 -27.932138 -96.895134
4544000000 -27.778265 -107.88391
4548000000 -27.643744 -107.79915
4552000000 -26.622549 -115.04121
4556000000 -26.32271 -122.31631
4560000000 -26.445305 -129.35681
4564000000 -26.486845 -132.73523
4568000000 -25.922012 -135.4426
4572000000 -25.531645 -140.04857
4576000000 -25.327795 -146.72414
4580000000 -25.126123 -150.30209
4584000000 -24.551184 -153.6991
4588000000 -24.147299 -160.8423
4592000000 -24.127449 -162.04015
4596000000 -23.611818 -166.04903
4600000000 -23.705105 -170.37717
4604000000 -23.431223 -171.09386
4608000000 -22.778944 -176.82542
4612000000 -22.663734 -179.34596
4616000000 -22.361498 177.65504
4620000000 -21.884836 178.08719
4624000000 -21.789358 174.72531
4628000000 -21.525146 170.3197
4632000000 -21.149563 168.57971
4636000000 -20.732563 164.94815
4640000000 -20.971745 161.48221
4644000000 -20.870857 158.30501
4648000000 -20.679338 155.85191
4652000000 -20.578211 153.35083
4656000000 -20.24873 151.45341
4660000000 -20.161003 149.11723
4664000000 -20.05027 147.24167
4668000000 -20.236349 146.22192
4672000000 -20.016399 142.7558
4676000000 -19.916122 140.35536
4680000000 -19.633438 137.70018
4684000000 -19.540314 135.29559
4688000000 -19.500698 133.85173
4692000000 -19.44758 132.34727
4696000000 -19.240911 128.71532
4700000000 -19.126917 127.52448
4704000000 -19.015738 125.29508
4708000000 -19.07946 123.0069
4712000000 -18.971264 120.91541
4716000000 -18.781691 117.46951
4720000000 -18.847099 116.15271
4724000000 -18.872679 115.19614
4728000000 -18.691717 113.08073
4732000000 -18.769255 112.28942
4736000000 -18.610123 109.92837
4740000000 -18.684589 109.11307
4744000000 -18.404287 106.83568
4748000000 -18.799093 104.99963
4752000000 -18.41893 103.15032
4756000000 -18.580027 101.84818
4760000000 -18.474834 97.791084
4764000000 -18.592272 97.490799
4768000000 -18.514008 95.935165
4772000000 -18.713377 93.788803
4776000000 -18.531898 93.208008
4780000000 -18.543007 92.871391
4784000000 -18.560663 90.022758
4788000000 -18.386036 87.289078
4792000000 -18.507578 86.565132
4796000000 -18.661388 86.431343
4800000000 -18.532026 83.241409
4804000000 -18.419722 81.315117
4808000000 -18.429274 79.635483
4812000000 -18.636684 78.932999
4816000000 -18.667389 77.553879
4820000000 -18.462545 73.829185
4824000000 -18.562263 73.365685
4828000000 -18.807766 70.817406
4832000000 -18.560093 70.65519
4836000000 -18.563919 67.197205
4840000000 -18.492519 66.916702
4844000000 -18.615597 64.589531
4848000000 -18.466999 63.492798
4852000000 -18.633314 60.853092
4856000000 -18.872187 57.746826
4860000000 -18.853802 57.326447
4864000000 -18.601002 53.92823
4868000000 -18.943211 53.759563
4872000000 -18.90023 52.722412
4876000000 -18.806263 50.002396
4880000000 -19.146126 47.604061
4884000000 -19.13796 45.657272
4888000000 -19.154331 45.030109
4892000000 -19.127312 41.619961
4896000000 -19.371166 39.020256
4900000000 -19.378237 37.666035
4904000000 -19.446476 35.168503
4908000000 -19.537807 33.375935
4912000000 -19.775349 30.183733
4916000000 -19.512218 27.906208
4920000000 -19.863512 25.994661
4924000000 -20.042849 24.019108
4928000000 -20.323088 21.223583
4932000000 -20.313742 18.323345
4936000000 -20.494061 14.39551
4940000000 -20.910639 11.812132
4944000000 -20.943975 10.023201
4948000000 -21.253082 7.4061074
4952000000 -21.360508 1.3033961
4956000000 -21.282782 0.39603776
4960000000 -21.727663 -3.4286199
4964000000 -21.981539 -7.4888721
4968000000 -22.288593 -9.5496759
4972000000 -22.16363 -16.506584
4976000000 -22.715555 -17.759678
4980000000 -23.323957 -24.118687
4984000000 -23.166422 -26.914124
4988000000 -23.653746 -29.608099
4992000000 -24.151777 -37.651047
4996000000 -24.468857 -41.583981
5000000000 -24.306898 -46.794731
5004000000 -24.243013 -51.398716
5008000000 -25.266336 -58.376057
5012000000 -25.260378 -64.46492
5016000000 -25.790396 -71.6464
5020000000 -25.527596 -75.483452
5024000000 -25.895708 -87.194832
5028000000 -25.787819 -93.389122
5032000000 -26.309576 -94.71286
5036000000 -26.237293 -105.88545
5040000000 -25.272821 -113.21552
5044000000 -25.073654 -124.73282
5048000000 -25.127947 -128.1676
5052000000 -24.43433 -132.56754
5056000000 -24.370945 -141.45815
5060000000 -23.879276 -148.59335
5064000000 -23.330872 -155.92041
5068000000 -22.586613 -161.19304
5072000000 -22.361979 -165.97032
5076000000 -21.630342 -172.05354
5080000000 -21.462326 -175.63918
5084000000 -20.993444 179.12575
5088000000 -20.657732 175.87379
5092000000 -20.254925 172.0407
5096000000 -19.934851 169.5049
5100000000 -19.615412 165.47914
5104000000 -19.140932 160.7699
5108000000 -18.690994 157.41772
5112000000 -18.258892 154.10133
5116000000 -18.378946 148.85641
5120000000 -17.751043 145.89928
5124000000 -17.570452 142.16238
5128000000 -17.241867 138.93417
5132000000 -16.893822 135.70009
5136000000 -16.820349 133.05199
5140000000 -16.525949 131.03485
5144000000 -16.243876 127.32076
5148000000 -15.879554 124.85396
5152000000 -15.76924 121.07559
5156000000 -15.702334 118.72328
5160000000 -15.381067 116.04669
5164000000 -15.344243 113.12865
5168000000 -15.207919 109.99268
5172000000 -14.943978 107.69386
5176000000 -14.764976 103.56067
5180000000 -14.734385 101.71964
5184000000 -14.522091 99.3386
5188000000 -14.496362 96.244812
5192000000 -14.476536 93.225639
5196000000 -14.306995 91.090416
5200000000 -14.142838 87.592499
5204000000 -14.108986 85.292007
5208000000 -14.198471 83.12606
5212000000 -13.978378 80.072296
5216000000 -13.889614 77.739265
5220000000 -13.880498 75.010887
5224000000 -13.881912 71.971924
5228000000 -13.938877 69.884697
5232000000 -13.922702 67.150154
5236000000 -13.98796 65.54216
5240000000 -14.000107 61.742992
5244000000 -14.11777 60.202591
5248000000 -14.071838 57.210674
5252000000 -14.20537 55.269489
5256000000 -14.333948 53.409733
5260000000 -14.266282 50.668201
5264000000 -14.525187 48.167183
5268000000 -14.499935 47.526104
5272000000 -14.719507 45.205273
5276000000 -14.797315 43.33345
5280000000 -14.944507 41.709061
5284000000 -15.097886 40.747387
5288000000 -15.350115 38.824951
5292000000 -15.569515 37.163074
5296000000 -15.746207 35.979214
5300000000 -15.762784 35.450703
5304000000 -16.091898 35.319153
5308000000 -15.927838 33.626812
5312000000 -16.228607 32.696358
5316000000 -16.384109 32.791805
5320000000 -16.660364 32.674381
5324000000 -16.61508 32.552876
5328000000 -16.62719 31.766453
5332000000 -16.54583 32.570606
5336000000 -16.553776 31.680517
5340000000 -16.540091 30.909981
5344000000 -16.583536 31.536507
5348000000 -16.446375 31.218616
5352000000 -16.552189 29.928837
5356000000 -16.352821 28.988447
5360000000 -16.206846 28.965952
5364000000 -16.121563 28.520575
5368000000 -16.131605 27.843891
5372000000 -16.067429 25.97666
5376000000 -15.956695 24.290716
5380000000 -15.808345 24.412399
5384000000 -15.837948 24.820625
5388000000 -15.70645 22.537163
5392000000 -15.642562 21.735405
5396000000 -15.624385 21.085438
5400000000 -15.671276 20.045855
5404000000 -15.51658 19.051756
5408000000 -15.272587 18.629921
5412000000 -15.208984 16.649307
5416000000 -15.119417 18.435905
5420000000 -15.207797 15.308107
5424000000 -14.92933 16.506424
5428000000 -14.846326 14.472403
5432000000 -14.61087 14.545609
5436000000 -14.469005 13.380509
5440000000 -14.162689 12.24111
5444000000 -13.911811 11.914927
5448000000 -13.632482 10.25893
5452000000 -13.38843 7.8362198
5456000000 -13.14023 6.9181824
5460000000 -12.936515 3.5463588
5464000000 -12.655447 1.5081162
5468000000 -12.360414 0.6162039
5472000000 -12.100037 -2.5025399
5476000000 -11.79683 -4.5123777
5480000000 -11.6441 -6.6966434
5484000000 -11.350042 -9.49578
5488000000 -11.32338 -12.28737
5492000000 -10.993896 -14.948643
5496000000 -10.840579 -18.391584
5500000000 -10.553835 -21.019131
5504000000 -10.432504 -24.266785
5508000000 -10.185952 -27.142584
5512000000 -10.092802 -30.630087
5516000000 -9.9572935 -33.956879
5520000000 -9.7345943 -37.283947
5524000000 -9.7187996 -41.19413
5528000000 -9.5853348 -44.47916
5532000000 -9.5151176 -46.876205
5536000000 -9.3597012 -50.561142
5540000000 -9.2389278 -54.695301
5544000000 -9.1454678 -57.145699
5548000000 -9.1118345 -61.122707
5552000000 -9.0467215 -64.746834
5556000000 -8.963028 -68.270325
5560000000 -8.908534 -71.715904
5564000000 -8.8338242 -74.975418
5568000000 -8.7422924 -78.78598
5572000000 -8.7731209 -82.367058
5576000000 -8.6916332 -86.136833
5580000000 -8.5696764 -90.20446
5584000000 -8.5579853 -93.29882
5588000000 -8.5080614 -97.0821
5592000000 -8.4838839 -100.27288
5596000000 -8.4536018 -104.47071
5600000000 -8.4100609 -107.82202
5604000000 -8.3426313 -111.94472
5608000000 -8.2491655 -115.03407
5612000000 -8.2940617 -118.64984
5616000000 -8.1705809 -123.12426
5620000000 -8.1572342 -125.92492
5624000000 -8.1694956 -129.71111
5628000000 -8.0306368 -132.94174
5632000000 -8.0131502 -136.88507
5636000000 -8.0050316 -140.78929
5640000000 -7.8965154 -143.91101
5644000000 -7.8696647 -147.72226
5648000000 -7.8264451 -151.89949
5652000000 -7.7924967 -154.60114
5656000000 -7.7745643 -157.83423
5660000000 -7.6820483 -162.82211
5664000000 -7.6274428 -165.94777
5668000000 -7.5684371 -169.16118
5672000000 -7.5399132 -172.45222
5676000000 -7.5092525 -175.36716
5680000000 -7.3520675 -179.06831
5684000000 -7.3247213 177.19421
5688000000 -7.3273282 173.55406
5692000000 -7.2422781 170.22003
5696000000 -7.1753759 167.27917
5700000000 -7.0983448 163.84727
5704000000 -7.1113801 160.45152
5708000000 -7.0242658 157.09413
5712000000 -6.9160395 153.7278
5716000000 -6.8450069 150.99974
5720000000 -6.8438849 147.33824
5724000000 -6.7719998 144.13319
5728000000 -6.6996789 141.46191
5732000000 -6.6324005 138.08762
5736000000 -6.6089697 135.03091
5740000000 -6.46242 132.05914
5744000000 -6.4730558 129.25673
5748000000 -6.3942938 125.86929
5752000000 -6.2690716 122.51304
5756000000 -6.2778339 119.31554
5760000000 -6.2019544 116.72925
5764000000 -6.2124872 113.99812
5768000000 -6.1378899 110.29123
5772000000 -6.0948162 108.13393
5776000000 -6.1198769 105.57487
5780000000 -6.0049014 102.03758
5784000000 -5.9798398 99.297852
5788000000 -5.9000435 96.275436
5792000000 -5.8343172 93.436264
5796000000 -5.8066626 90.707657
5800000000 -5.8293824 88.051308
5804000000 -5.7191758 85.785049
5808000000 -5.7362294 82.714661
5812000000 -5.6616058 80.102417
5816000000 -5.6553893 77.061485
5820000000 -5.6120343 74.159966
5824000000 -5.5827589 71.942108
5828000000 -5.5552707 69.469963
5832000000 -5.5558028 66.540359
5836000000 -5.4910765 63.692184
5840000000 -5.5208645 61.781582
5844000000 -5.456315 58.686871
5848000000 -5.4260173 56.285221
5852000000 -5.4469657 53.977505
5856000000 -5.4531369 50.561981
5860000000 -5.3429327 48.924816
5864000000 -5.4022231 46.282536
5868000000 -5.402391 44.145454
5872000000 -5.4443688 41.05558
5876000000 -5.4923439 38.580612
5880000000 -5.3741584 36.63858
5884000000 -5.4427729 33.761051
5888000000 -5.378799 31.44141
5892000000 -5.4059982 28.956799
5896000000 -5.4012489 26.244986
5900000000 -5.3863459 24.609516
5904000000 -5.4290891 21.767452
5908000000 -5.4154816 19.348774
5912000000 -5.433713 16.695568
5916000000 -5.4288802 14.243946
5920000000 -5.4905133 12.12329
5924000000 -5.4444675 9.3649206
5928000000 -5.4934859 7.247138
5932000000 -5.5331125 4.2772565
5936000000 -5.5365629 2.6066208
5940000000 -5.5063581 -0.065119058
5944000000 -5.535677 -2.3897796
5948000000 -5.6129065 -4.6015687
5952000000 -5.6650906 -7.3540945
5956000000 -5.666543 -10.020484
5960000000 -5.7394962 -12.221126
5964000000 -5.7616577 -14.825942
5968000000 -5.8325424 -16.935738
5972000000 -5.9370914 -19.420835
5976000000 -5.9418459 -22.375725
5980000000 -5.9950061 -24.863934
5984000000 -5.9918442 -27.375185
5988000000 -6.0808635 -30.116894
5992000000 -6.1493087 -32.58223
5996000000 -6.2037468 -34.972965
6000000000 -6.3146143 -38.00959
